# HZ S RI R 50
7004608 0.75951776 -0.310656256
7012036 0.755037824 -0.316205408
7019464 0.751109184 -0.322030496
7026892 0.747022272 -0.326712864
7034320 0.742201984 -0.332279072
7041748 0.738033856 -0.338024352
7049176 0.733925376 -0.34217392
7056604 0.728908288 -0.347673728
7064032 0.72441376 -0.353163008
7071460 0.719884736 -0.357270048
7078888 0.71479136 -0.36258192
7086316 0.710151424 -0.367109792
7093744 0.704928384 -0.371570656
7101172 0.699864 -0.376896576
7108600 0.695031808 -0.380644544
7116028 0.689115136 -0.385171392
7123456 0.683913216 -0.390293056
7130884 0.679146304 -0.393400096
7138312 0.672794944 -0.397796992
7145740 0.667335936 -0.402663424
7153168 0.662366336 -0.405522816
7160596 0.655877824 -0.409549216
7168024 0.65051648 -0.413546624
7175452 0.644895104 -0.416174656
7182880 0.638134848 -0.420438944
7190308 0.632902592 -0.423244032
7197736 0.626433728 -0.425894848
7205164 0.619878336 -0.429845728
7212592 0.614901184 -0.43166512
7220020 0.607494528 -0.434267104
7227448 0.60098016 -0.438138272
7234876 0.595964864 -0.439290976
7242304 0.58852288 -0.441316064
7249732 0.581997376 -0.444574336
7257160 0.576949568 -0.445183744
7264588 0.569030848 -0.447191232
7272016 0.563362688 -0.448851392
7279444 0.557076544 -0.449332928
7286872 0.5494416 -0.451378208
7294300 0.545063744 -0.45126992
7301728 0.537043584 -0.451097056
7309156 0.529617056 -0.453534208
7316584 0.525853216 -0.452822528
7324012 0.517936576 -0.451645824
7331440 0.510097632 -0.45337664
7338868 0.507320768 -0.451993664
7346296 0.49923472 -0.450569344
7353724 0.492868448 -0.451068896
7361152 0.488832512 -0.4491896
7368580 0.480833344 -0.447643712
7376008 0.47769008 -0.446695008
7383436 0.471662976 -0.443264512
7390864 0.463950304 -0.442464032
7398292 0.461719232 -0.440896704
7405720 0.45599024 -0.436207392
7413148 0.448053184 -0.434795872
7420576 0.448013984 -0.433099392
7428004 0.442232544 -0.42778864
7435432 0.435457184 -0.425926976
7442860 0.43531056 -0.423634208
7450288 0.430011008 -0.418009568
7457716 0.427470944 -0.416584544
7465144 0.425911968 -0.411808064
7472572 0.420143328 -0.407003776
7480000 0.4203712 -0.40538528
7487428 0.419403616 -0.398954944
7494856 0.413690368 -0.394321792
7502284 0.411128064 -0.390655168
7509712 0.413526624 -0.390144416
7517140 0.412779008 -0.383244192
7524568 0.411351296 -0.381049248
7531996 0.41356272 -0.377633632
7539424 0.411827488 -0.370989312
7546852 0.413859232 -0.370444256
7554280 0.417074944 -0.365800768
7561708 0.415289664 -0.359774368
7569136 0.41881824 -0.362005056
7576564 0.42381984 -0.356242176
7583992 0.4226344 -0.349843104
7591420 0.42595968 -0.353462592
7598848 0.431599424 -0.349474624
7606276 0.432028576 -0.345532416
7613704 0.43641968 -0.348343424
7621132 0.4417056 -0.343780512
7628560 0.4440344 -0.344726432
7635988 0.44972544 -0.346001568
7643416 0.453589472 -0.342087072
7650844 0.456368704 -0.347159296
7658272 0.464645536 -0.34807296
7665700 0.468082048 -0.343869504
7673128 0.470165696 -0.350185568
7680556 0.477551296 -0.352864672
7687984 0.481846784 -0.350584288
7695412 0.483516768 -0.358016416
7702840 0.491237472 -0.360442432
7710268 0.494019552 -0.362095008
7717696 0.497101792 -0.368813312
7725124 0.50321728 -0.370668128
7732552 0.504025984 -0.377716416
7739980 0.50944208 -0.384585472
7747408 0.514765088 -0.385366528
7754836 0.5148064 -0.393501824
7762264 0.51884736 -0.401104704
7769692 0.524611168 -0.403125248
7777120 0.522289568 -0.412037344
7784548 0.526335424 -0.420044992
7791976 0.530158592 -0.42355008
7799404 0.528766144 -0.432439552
7806832 0.532114624 -0.439019584
7814260 0.531292384 -0.4465624
7821688 0.531689696 -0.455302336
7829116 0.535205536 -0.460633952
7836544 0.532150624 -0.469433312
7843972 0.5323288 -0.478137248
7851400 0.536134656 -0.484081568
7858828 0.530482304 -0.49230288
7866256 0.530125216 -0.501481696
7873684 0.533006912 -0.507925824
7881112 0.527569888 -0.515818304
7888540 0.527104864 -0.523990944
7895968 0.525114112 -0.531321696
7903396 0.521354912 -0.539762624
7910824 0.521671168 -0.547298304
7918252 0.516248288 -0.554831616
7925680 0.513093344 -0.563121792
7933108 0.513304224 -0.571168896
7940536 0.50590016 -0.577238016
7947964 0.502416672 -0.58606944
7955392 0.502156032 -0.594552768
7962820 0.494731328 -0.599987008
7970248 0.49077888 -0.608043904
7977676 0.488053344 -0.61574176
7985104 0.481035008 -0.621794496
7992532 0.477838144 -0.629744512
7999960 0.471620736 -0.635914432
8007388 0.46559824 -0.642827648
8014816 0.462448256 -0.6505264
8022244 0.454405504 -0.65513024
8029672 0.448472288 -0.662932736
8037100 0.444938112 -0.670603904
8044528 0.436798176 -0.674313984
8051956 0.430244704 -0.681413504
8059384 0.425857312 -0.688717056
8066812 0.417729376 -0.692218304
8074240 0.411542144 -0.699324992
8081668 0.405252608 -0.705074368
8089096 0.397534176 -0.709401472
8096524 0.391836896 -0.716170176
8103952 0.383505408 -0.719395776
8111380 0.375785568 -0.725269632
8118808 0.370118944 -0.73181152
8126236 0.361767456 -0.734286656
8133664 0.353752544 -0.739646336
8141092 0.347255008 -0.745912768
8148520 0.339203328 -0.747813952
8155948 0.33104144 -0.752945408
8163376 0.324001952 -0.758025408
8170804 0.31565488 -0.760498816
8178232 0.308220064 -0.765656832
8185660 0.299876768 -0.767984448
8193088 0.2913144 -0.771685696
8200516 0.284056256 -0.776528704
8207944 0.275567232 -0.77806496
8215372 0.26675376 -0.781686912
8222800 0.259054864 -0.786260736
8230228 0.250833328 -0.787066432
8237656 0.241774864 -0.79028224
8245084 0.233847152 -0.7944304
8252512 0.218163504 -0.796533952
8259940 0.21005696 -0.799937856
8267368 0.201592848 -0.800803072
8274796 0.192656912 -0.802906368
8282224 0.184276128 -0.806059712
8289652 0.175967232 -0.806271936
8297080 0.16689768 -0.808146752
8304508 0.158327296 -0.810804736
8311936 0.14993856 -0.810869248
8319364 0.140974048 -0.812739008
8326792 0.132396832 -0.814014528
8334220 0.123667256 -0.814394624
8341648 0.114757472 -0.816326656
8349076 0.106164064 -0.816257088
8356504 0.097252456 -0.81692064
8363932 0.088297088 -0.818527936
8371360 0.079938328 -0.817893056
8378788 0.07069804 -0.818350336
8386216 0.061661344 -0.819626752
8393644 0.053298852 -0.81871392
8401072 0.044105252 -0.81890656
8408500 0.03512146 -0.819552832
8415928 0.026680872 -0.818446592
8423356 0.017405022 -0.81876704
8430784 0.0087873 -0.818106688
8438212 7.032e-06 -0.817170048
8445640 -0.009272097 -0.817343552
8453068 -0.017508306 -0.81569632
8460496 -0.0267217 -0.814781824
8467924 -0.035915112 -0.814622848
8475352 -0.044103792 -0.812752896
8482780 -0.05322684 -0.81145536
8490208 -0.062380008 -0.810797568
8497636 -0.07055956 -0.8085696
8505064 -0.079738776 -0.807280576
8512492 -0.088524344 -0.805842688
8519920 -0.09685016 -0.803497152
8527348 -0.106111664 -0.802176704
8534776 -0.114216104 -0.79963104
8542204 -0.123099168 -0.79740896
8549632 -0.132206304 -0.795760064
8557060 -0.140170992 -0.792844992
8564488 -0.14896984 -0.790333376
8571916 -0.158061824 -0.788275712
8579344 -0.165851824 -0.785012992
8586772 -0.174671296 -0.782260032
8594200 -0.18346512 -0.779739776
8601628 -0.191265216 -0.776277824
8609056 -0.200229216 -0.773467456
8616484 -0.20816968 -0.77001792
8623912 -0.21652168 -0.766491072
8631340 -0.225255824 -0.763394752
8638768 -0.232857424 -0.759472128
8646196 -0.241165584 -0.755757184
8653624 -0.249876848 -0.75236224
8661052 -0.2572524 -0.748139008
8668480 -0.265531536 -0.74403104
8675908 -0.273995008 -0.740183744
8683336 -0.281304032 -0.735678784
8690764 -0.289588992 -0.731372928
8698192 -0.297387776 -0.726993344
8705620 -0.305006176 -0.722279104
8713048 -0.313189248 -0.717790848
8720476 -0.320376768 -0.712910336
8727904 -0.328014176 -0.707960064
8735332 -0.336144416 -0.703110912
8742760 -0.342988736 -0.697920512
8750188 -0.350591488 -0.69263104
8757616 -0.35845152 -0.687447232
8765044 -0.365204352 -0.682035328
8772472 -0.372604576 -0.676429952
8779900 -0.380097312 -0.670861696
8787328 -0.38683136 -0.665129216
8794756 -0.394279296 -0.659338944
8802184 -0.401049792 -0.653426368
8809612 -0.40779072 -0.64741536
8817040 -0.415112224 -0.641258624
8824468 -0.421411072 -0.63521472
8831896 -0.42814192 -0.628732736
8839324 -0.435109152 -0.622284096
8846752 -0.441266368 -0.615892992
8854180 -0.447757088 -0.609303936
8861608 -0.454368576 -0.602557952
8869036 -0.46026032 -0.595816064
8876464 -0.466743104 -0.588861632
8883892 -0.472868576 -0.58202144
8891320 -0.478493376 -0.574960448
8898748 -0.484757536 -0.567624768
8906176 -0.490366432 -0.560635776
8913604 -0.495975264 -0.553251648
8921032 -0.501878976 -0.545735424
8928460 -0.507213248 -0.538437888
8935888 -0.51266832 -0.530979264
8943316 -0.518142944 -0.523219872
8950744 -0.523094784 -0.515598176
8958172 -0.528459776 -0.507868
8965600 -0.533572544 -0.500019424
8973028 -0.538176896 -0.492167072
8980456 -0.54339168 -0.484034496
8987884 -0.548124288 -0.476215968
8995312 -0.552294464 -0.467509696
9002740 -0.556858368 -0.455540832
9010168 -0.561222208 -0.449685344
9017596 -0.5655728 -0.440988032
9025024 -0.569908544 -0.432655072
9032452 -0.573754624 -0.424393792
9039880 -0.577658944 -0.41590048
9047308 -0.581596224 -0.407307584
9054736 -0.585083264 -0.398858368
9062164 -0.588747072 -0.390108896
9069592 -0.592238336 -0.381432288
9077020 -0.595471488 -0.372850912
9084448 -0.598803072 -0.363952352
9091876 -0.601761984 -0.355286592
9099304 -0.604758592 -0.346347712
9106732 -0.607737088 -0.337403744
9114160 -0.610418624 -0.328601344
9121588 -0.612999168 -0.319661248
9129016 -0.615569856 -0.310657472
9136444 -0.617780416 -0.301766272
9143872 -0.620037504 -0.292590976
9151300 -0.622286464 -0.283463264
9158728 -0.624232448 -0.27454032
9166156 -0.626168448 -0.2653004
9173584 -0.627845056 -0.256190544
9181012 -0.62950272 -0.246999104
9188440 -0.63104064 -0.237738912
9195868 -0.632380416 -0.228654976
9203296 -0.633630784 -0.21948144
9210724 -0.634803328 -0.21017896
9218152 -0.63577024 -0.200930432
9225580 -0.636682944 -0.191680432
9233008 -0.637528384 -0.182373616
9240436 -0.638035392 -0.173210048
9247864 -0.6385104 -0.163788672
9255292 -0.638865856 -0.154459264
9262720 -0.63915264 -0.145190544
9270148 -0.639249408 -0.135863904
9277576 -0.639125888 -0.126629216
9285004 -0.638935424 -0.117352656
9292432 -0.638609856 -0.108037168
9299860 -0.6381568 -0.098733584
9307288 -0.637632 -0.089405008
9314716 -0.636974272 -0.080232432
9322144 -0.636008384 -0.070973216
9329572 -0.634989056 -0.061701892
9337000 -0.633894592 -0.052456068
9344428 -0.632631488 -0.043215764
9351856 -0.631232128 -0.03406334
9359284 -0.629711744 -0.024971982
9366712 -0.628042304 -0.015824059
9374140 -0.62627456 -0.006747661
9381568 -0.6242192 0.002286252
9388996 -0.622252544 0.011462355
9396424 -0.620233472 0.020481394
9403852 -0.617828416 0.029400184
9411280 -0.615269504 0.03831234
9418708 -0.61281888 0.047277332
9426136 -0.610135168 0.056163012
9433564 -0.607320256 0.064861192
9440992 -0.604290368 0.07358212
9448420 -0.601159424 0.082383592
9455848 -0.598175488 0.09098428
9463276 -0.594758592 0.09950284
9470704 -0.591205632 0.108064312
9478132 -0.587770496 0.116758472
9485560 -0.584114112 0.125036744
9492988 -0.580153792 0.133344592
9500416 -0.5764144 0.141904208
9507844 -0.57236896 0.150055696
9515272 -0.568138048 0.158139616
9522700 -0.5638704 0.16639888
9530128 -0.559564608 0.174468016
9537556 -0.555150208 0.18234704
9544984 -0.55038432 0.190256352
9552412 -0.54558592 0.198205248
9559840 -0.540997696 0.206034688
9567268 -0.535936704 0.213535312
9574696 -0.53082096 0.221132864
9582124 -0.525641088 0.228885728
9589552 -0.520436768 0.236190976
9596980 -0.515124256 0.243512448
9604408 -0.509568736 0.250738976
9611836 -0.503864896 0.258004128
9619264 -0.498420768 0.265111328
9626692 -0.492553504 0.271987424
9634120 -0.486502944 0.279014752
9641548 -0.480764 0.285927072
9648976 -0.47467856 0.29249488
9656404 -0.468413824 0.299040416
9663832 -0.462146624 0.305723808
9671260 -0.455942208 0.31201984
9678688 -0.449513152 0.318246528
9686116 -0.442845344 0.3245392
9693544 -0.436388928 0.330756
9700972 -0.42978224 0.336565952
9708400 -0.422878688 0.342419296
9715828 -0.416089632 0.3483816
9723256 -0.409382208 0.35393104
9730684 -0.40226288 0.359300384
9738112 -0.395099072 0.364946208
9745540 -0.388232352 0.370272704
9752968 -0.38239488 0.37345824
9760396 -0.375226624 0.378677024
9767824 -0.36786432 0.383576064
9775252 -0.360564256 0.388482112
9782680 -0.353217728 0.39331968
9790108 -0.34571408 0.39785472
9797536 -0.338237152 0.402515968
9804964 -0.330671232 0.406924576
9812392 -0.323016736 0.411139808
9819820 -0.315364512 0.415405376
9827248 -0.307670336 0.419432
9834676 -0.299930144 0.423373184
9842104 -0.292095392 0.4271688
9849532 -0.28425376 0.430751648
9856960 -0.276302368 0.434423008
9864388 -0.268430416 0.437929376
9871816 -0.260479504 0.441136256
9879244 -0.25244016 0.44435616
9886672 -0.244394144 0.447480992
9894100 -0.236368816 0.450368736
9901528 -0.228228224 0.453193632
9908956 -0.22016152 0.4559968
9916384 -0.212006944 0.459006656
9923812 -0.203803552 0.460961088
9931240 -0.196360544 0.46382864
9938668 -0.187445584 0.465380832
9946096 -0.179245664 0.467552256
9953524 -0.171079712 0.469476896
9960952 -0.162793584 0.471286048
9968380 -0.154544448 0.472995072
9975808 -0.146340944 0.474543296
9983236 -0.138029776 0.475948128
9990664 -0.12977776 0.477338912
9998092 -0.121550368 0.47849024
10005520 -0.113221872 0.479544576
10012948 -0.10497948 0.480533888
10020376 -0.09677472 0.481291648
10027804 -0.088559208 0.48199296
10035232 -0.080365592 0.482578144
10042660 -0.072103752 0.483033216
10050088 -0.06389384 0.483376608
10057516 -0.05576144 0.48358448
10064944 -0.047546948 0.483631776
10072372 -0.039366848 0.483643488
10079800 -0.031313732 0.483473568
10087228 -0.023160366 0.4832768
10094656 -0.015073968 0.482835104
10102084 -0.007073566 0.482330656
10109512 0.000967544 0.48173104
10116940 0.008937197 0.481004
10124368 0.016883078 0.480249056
10131796 0.02478609 0.479168672
10139224 0.032687302 0.478136704
10146652 0.040555908 0.476991584
10154080 0.048378144 0.47571392
10161508 0.056144012 0.474362016
10168936 0.063838588 0.472826944
10176364 0.07157532 0.471098016
10183792 0.079164096 0.469512448
10191220 0.086728912 0.467596288
10198648 0.094228456 0.465630752
10206076 0.101753592 0.463708704
10213504 0.109145424 0.461488832
10220932 0.1164754 0.459313664
10228360 0.123861408 0.456991936
10235788 0.131071272 0.454549568
10243216 0.138294048 0.4520744
10250644 0.145441296 0.449429792
10258072 0.152527856 0.446652928
10265500 0.159600368 0.443951968
10272928 0.166547424 0.441017408
10280356 0.173402096 0.438054816
10287784 0.180273568 0.435051136
10295212 0.1870144 0.431857536
10302640 0.193718144 0.428614496
10310068 0.20047392 0.425331648
10317496 0.2070168 0.421955584
10324924 0.213581344 0.418578432
10332352 0.22000832 0.41500272
10339780 0.22635752 0.411321408
10347208 0.232791472 0.407645632
10354636 0.239134096 0.403974656
10362064 0.24525888 0.400107744
10369492 0.251458736 0.396153504
10376920 0.257619168 0.392258912
10384348 0.263473424 0.388228256
10391776 0.269501856 0.384079232
10399204 0.275323648 0.37979968
10406632 0.281253504 0.375656768
10414060 0.28702944 0.371431776
10421488 0.292507456 0.366965664
10428916 0.298203328 0.3623656
10436344 0.303872192 0.35790448
10443772 0.309228736 0.35340736
10451200 0.314646912 0.348695904
10458628 0.319975136 0.343948288
10466056 0.325229952 0.339160256
10473484 0.330356544 0.334345088
10480912 0.335361504 0.329315328
10488340 0.340447328 0.32439872
10495768 0.345475552 0.319482304
10503196 0.35139632 0.314688064
10510624 0.356175968 0.30949952
10518052 0.360817664 0.30424672
10525480 0.365484896 0.299004128
10532908 0.37003328 0.29367616
10540336 0.374468736 0.288312672
10547764 0.378942848 0.282880192
10555192 0.383165408 0.277421856
10562620 0.387424224 0.271938816
10570048 0.391537472 0.266312688
10577476 0.395543392 0.260717632
10584904 0.399613376 0.255065792
10592332 0.403476704 0.249395584
10599760 0.407174112 0.2436412
10607188 0.410923904 0.237860464
10614616 0.414507904 0.231938784
10622044 0.418004544 0.226156352
10629472 0.421553952 0.220300176
10636900 0.424873376 0.214392208
10644328 0.428110432 0.208465424
10651756 0.431306656 0.202408704
10659184 0.434336704 0.196494976
10666612 0.437451104 0.19048272
10674040 0.440319072 0.1844096
10681468 0.443067936 0.178356736
10688896 0.445825856 0.172189552
10696324 0.448506624 0.166057968
10703752 0.450927968 0.159948192
10711180 0.453513696 0.153831744
10718608 0.455816768 0.147685856
10726036 0.45805216 0.141454416
10733464 0.460293216 0.13521936
10740892 0.46238416 0.1290662
10748320 0.464496576 0.12287284
10755748 0.4663664 0.116626896
10763176 0.468157056 0.110362792
10770604 0.469926976 0.10407124
10778032 0.471597568 0.097823136
10785460 0.47319056 0.091574712
10792888 0.47474432 0.085294552
10800316 0.476218016 0.07912728
10807744 0.477401312 0.072806464
10815172 0.478703776 0.066494496
10822600 0.47983712 0.060246452
10830028 0.48099312 0.053921256
10837456 0.482059488 0.047676652
10844884 0.482917632 0.041434208
10852312 0.483790688 0.035113692
10859740 0.4845304 0.028744672
10867168 0.485162656 0.022487678
10874596 0.485871936 0.016247189
10882024 0.486373664 0.010039047
10889452 0.486635648 0.00373992
10896880 0.48708176 -0.002568221
10904308 0.487403584 -0.00880654
10911736 0.48761664 -0.014987551
10919164 0.487799552 -0.02123704
10926592 0.487757216 -0.027409124
10934020 0.487783328 -0.033752712
10941448 0.487756096 -0.039986724
10948876 0.487541184 -0.045968552
10956304 0.487318656 -0.052198088
10963732 0.486982656 -0.058361388
10971160 0.48641408 -0.064554548
10978588 0.486116288 -0.070721816
10986016 0.485710528 -0.076708824
10993444 0.484873888 -0.08314632
11000872 0.484525856 -0.0891438
11008300 0.48257664 -0.094514288
11015728 0.48254384 -0.101059592
11023156 0.48165648 -0.107076576
11030584 0.480781184 -0.112968752
11038012 0.479779744 -0.11901096
11045440 0.478663296 -0.124914848
11052868 0.47721296 -0.130744248
11060296 0.476002848 -0.136821632
11067724 0.474690528 -0.142766672
11075152 0.473201856 -0.148528368
11082580 0.471912736 -0.154356384
11090008 0.470317792 -0.160039984
11097436 0.468503328 -0.165785888
11104864 0.466882336 -0.171772976
11112292 0.465250496 -0.177349664
11119720 0.46330368 -0.183030896
11127148 0.461350784 -0.18877576
11134576 0.459387392 -0.194337744
11142004 0.457471552 -0.20004496
11149432 0.455364256 -0.205458304
11156860 0.452994816 -0.210888752
11164288 0.450818272 -0.216592288
11171716 0.448622272 -0.222128432
11179144 0.44620496 -0.227401232
11186572 0.44387008 -0.232886976
11194000 0.44133504 -0.23810344
11201428 0.438706752 -0.243460928
11208856 0.436151296 -0.248956528
11216284 0.433626368 -0.254156
11223712 0.430896416 -0.259379472
11231140 0.4281248 -0.264514384
11238568 0.425217088 -0.269482816
11245996 0.422275648 -0.274754464
11253424 0.419126304 -0.281093728
11260852 0.416200384 -0.286185728
11268280 0.413137888 -0.291089376
11275708 0.409943552 -0.295948032
11283136 0.406727648 -0.300929536
11290564 0.403477504 -0.305623616
11297992 0.4002288 -0.3106208
11305420 0.396901088 -0.315344928
11312848 0.393367456 -0.319804768
11320276 0.389987584 -0.324690208
11327704 0.386469952 -0.329292608
11335132 0.382890592 -0.333706304
11342560 0.37930608 -0.338424448
11349988 0.3757568 -0.34282544
11357416 0.371980832 -0.347215456
11364844 0.36811968 -0.351653312
11372272 0.364402048 -0.35592224
11379700 0.360526368 -0.360276864
11387128 0.356684928 -0.364475712
11394556 0.352634912 -0.368418816
11401984 0.348641952 -0.37274784
11409412 0.344666656 -0.376817408
11416840 0.340587136 -0.380615104
11424268 0.336430208 -0.384850304
11431696 0.332290272 -0.3887608
11439124 0.328097024 -0.392549312
11446552 0.32375392 -0.396440608
11453980 0.319553152 -0.40016976
11461408 0.315128768 -0.40392112
11468836 0.310859104 -0.407564
11476264 0.306399552 -0.411007648
11483692 0.301920448 -0.414747136
11491120 0.29750608 -0.418300768
11498548 0.293077056 -0.421476032
11505976 0.288365248 -0.42517776
