# HZ S RI R 50
7004608 0.966992192 -0.011103509
7012036 0.96685536 -0.012585198
7019464 0.9667376 -0.014020438
7026892 0.966566144 -0.015439874
7034320 0.966344896 -0.016823082
7041748 0.966134528 -0.018347214
7049176 0.966007552 -0.019772382
7056604 0.965803264 -0.021159946
7064032 0.965687744 -0.022477994
7071460 0.965419648 -0.023981256
7078888 0.965303296 -0.025404098
7086316 0.965407936 -0.026819566
7093744 0.965252544 -0.028116292
7101172 0.965072064 -0.029560698
7108600 0.964947456 -0.030940494
7116028 0.964879808 -0.032432016
7123456 0.96478752 -0.033890108
7130884 0.964842176 -0.035243928
7138312 0.964678784 -0.03656474
7145740 0.964706432 -0.038002032
7153168 0.964552192 -0.039346276
7160596 0.964494336 -0.040790068
7168024 0.964456576 -0.042303892
7175452 0.964585856 -0.04375598
7182880 0.964610688 -0.045129468
7190308 0.964529408 -0.046534704
7197736 0.964486784 -0.047917024
7205164 0.964407424 -0.049399096
7212592 0.96445504 -0.051032452
7220020 0.96464768 -0.052362736
7227448 0.964625088 -0.053746108
7234876 0.964540928 -0.05522312
7242304 0.96448512 -0.056857056
7249732 0.96466208 -0.058445608
7257160 0.9647984 -0.059708656
7264588 0.964634752 -0.061147136
7272016 0.96453088 -0.062814064
7279444 0.964683328 -0.064405776
7286872 0.964734144 -0.065967448
7294300 0.964764928 -0.067390512
7301728 0.96459136 -0.068792832
7309156 0.964455872 -0.070477536
7316584 0.9645136 -0.07219948
7324012 0.964574592 -0.073738104
7331440 0.96464352 -0.075175264
7338868 0.964520896 -0.076580472
7346296 0.96430336 -0.07818056
7353724 0.964098688 -0.079879392
7361152 0.964146048 -0.081505952
7368580 0.964143872 -0.083125312
7376008 0.964164096 -0.084556744
7383436 0.9640464 -0.085929864
7390864 0.963830592 -0.087513472
7398292 0.963489728 -0.089247536
7405720 0.963480704 -0.090959416
7413148 0.963468224 -0.09259644
7420576 0.963473792 -0.094029944
7428004 0.963298112 -0.095450096
7435432 0.962844224 -0.096959496
7442860 0.962639424 -0.098733856
7450288 0.962661952 -0.10040388
7457716 0.962563712 -0.10188176
7465144 0.962280704 -0.103227936
7472572 0.961747648 -0.10488508
7480000 0.961500672 -0.1066446
7487428 0.961546304 -0.108348568
7494856 0.961604992 -0.109736976
7502284 0.961057536 -0.111269776
7509712 0.960907264 -0.112896616
7517140 0.960805248 -0.114502584
7524568 0.960442752 -0.1160642
7531996 0.960252032 -0.117628688
7539424 0.9600192 -0.119305704
7546852 0.959633216 -0.12088212
7554280 0.95951424 -0.122526568
7561708 0.959237632 -0.124044224
7569136 0.958943744 -0.125712024
7576564 0.958672512 -0.12734324
7583992 0.95838112 -0.128957928
7591420 0.958148928 -0.130562112
7598848 0.957818048 -0.132168728
7606276 0.957327936 -0.133625584
7613704 0.957177792 -0.135378224
7621132 0.955925376 -0.139297696
7628560 0.956604416 -0.138821248
7635988 0.956279744 -0.140300016
7643416 0.955872704 -0.1418792
7650844 0.955468928 -0.14344264
7658272 0.9551584 -0.145122688
7665700 0.954806272 -0.146724128
7673128 0.954445312 -0.14843672
7680556 0.9541824 -0.150051936
7687984 0.953819712 -0.15162024
7695412 0.953424704 -0.153193824
7702840 0.95301472 -0.154869712
7710268 0.952571392 -0.156470464
7717696 0.952222592 -0.158164512
7725124 0.951916864 -0.159761984
7732552 0.951469632 -0.161343088
7739980 0.951026112 -0.162983776
7747408 0.95059872 -0.164601696
7754836 0.950220928 -0.166166112
7762264 0.949835392 -0.167893488
7769692 0.949426816 -0.169358432
7777120 0.94899168 -0.171052576
7784548 0.948613824 -0.172780256
7791976 0.94812224 -0.17433096
7799404 0.94775136 -0.17584856
7806832 0.947373824 -0.177531488
7814260 0.946843072 -0.179206752
7821688 0.946443008 -0.180936032
7829116 0.94609216 -0.182575248
7836544 0.945597376 -0.184135312
7843972 0.945114688 -0.18580176
7851400 0.944540672 -0.187413904
7858828 0.944145664 -0.189163824
7866256 0.943731648 -0.19094392
7873684 0.943282624 -0.1924952
7881112 0.942818624 -0.19416472
7888540 0.942224064 -0.195823856
7895968 0.941655488 -0.197505568
7903396 0.941172736 -0.199398048
7910824 0.940786688 -0.2010528
7918252 0.940296448 -0.2027328
7925680 0.93980832 -0.204417824
7933108 0.939208 -0.206040704
7940536 0.938576896 -0.207878288
7947964 0.938027264 -0.209739424
7955392 0.937618816 -0.211405776
7962820 0.937051328 -0.21302512
7970248 0.936351616 -0.214725248
7977676 0.935743104 -0.216574736
7985104 0.935267904 -0.218500912
7992532 0.934801152 -0.220112672
7999960 0.934177152 -0.221783392
8007388 0.933445696 -0.22360136
8014816 0.932743552 -0.2255348
8022244 0.932339712 -0.227389216
8029672 0.931790912 -0.229094096
8037100 0.93099264 -0.230745952
8044528 0.930205056 -0.232595824
8051956 0.92956384 -0.23465272
8059384 0.929035648 -0.236443152
8066812 0.928501632 -0.238239792
8074240 0.92783296 -0.239948784
8081668 0.926955648 -0.241696448
8089096 0.926202112 -0.243760944
8096524 0.92554112 -0.245762992
8103952 0.92498816 -0.247605392
8111380 0.92436608 -0.249521712
8118808 0.923454912 -0.250996912
8126236 0.92260416 -0.253002016
8133664 0.9217888 -0.255080672
8141092 0.92120928 -0.257052928
8148520 0.92051328 -0.258925584
8155948 0.919842176 -0.26053112
8163376 0.918934016 -0.262320576
8170804 0.9178928 -0.26428208
8178232 0.916982016 -0.266297792
8185660 0.916326976 -0.26841944
8193088 0.915648576 -0.270248704
8200516 0.914728384 -0.271887648
8207944 0.913520768 -0.273835072
8215372 0.9126736 -0.276101216
8222800 0.911879552 -0.278084544
8230228 0.91117856 -0.279770304
8237656 0.910146304 -0.281491136
8245084 0.90895392 -0.283463392
8252512 0.907954624 -0.285520544
8259940 0.906822336 -0.28762352
8267368 0.9059568 -0.28941216
8274796 0.904992192 -0.291314624
8282224 0.90388064 -0.293363136
8289652 0.902919424 -0.295346336
8297080 0.901921728 -0.297303392
8304508 0.900820352 -0.299230624
8311936 0.899767296 -0.301223872
8319364 0.898686848 -0.303249824
8326792 0.8976272 -0.305267808
8334220 0.896500224 -0.30725728
8341648 0.895383808 -0.309256032
8349076 0.894254656 -0.311332
8356504 0.893164544 -0.313357664
8363932 0.891941376 -0.315432832
8371360 0.890909952 -0.317493632
8378788 0.88973952 -0.319527936
8386216 0.888521152 -0.321647072
8393644 0.887228032 -0.323603136
8401072 0.885979392 -0.325689856
8408500 0.884786304 -0.327870656
8415928 0.883560704 -0.329990848
8423356 0.882236032 -0.332142176
8430784 0.88091584 -0.334144832
8438212 0.879603008 -0.336248832
8445640 0.878145472 -0.338461184
8453068 0.87676032 -0.340573248
8460496 0.875463552 -0.342725952
8467924 0.874048512 -0.344908608
8475352 0.872561344 -0.346974496
8482780 0.871082048 -0.349192512
8490208 0.869476736 -0.35138112
8497636 0.868056256 -0.353581984
8505064 0.866634752 -0.35572256
8512492 0.864997376 -0.357822048
8519920 0.863337472 -0.360051104
8527348 0.861842816 -0.36236544
8534776 0.860250816 -0.364520608
8542204 0.858717888 -0.366665952
8549632 0.856840064 -0.368708384
8557060 0.855177472 -0.3710512
8564488 0.853577536 -0.37335312
8571916 0.851875456 -0.375537568
8579344 0.85016096 -0.377717056
8586772 0.84823872 -0.379845408
8594200 0.846440384 -0.382153216
8601628 0.844646464 -0.384483104
8609056 0.842823872 -0.386780576
8616484 0.840897024 -0.389029664
8623912 0.839056768 -0.391300736
8631340 0.837084992 -0.393531168
8638768 0.835121216 -0.395787936
8646196 0.833138624 -0.398073536
8653624 0.83115168 -0.400486112
8661052 0.829160512 -0.402860064
8668480 0.827140096 -0.405085376
8675908 0.824935616 -0.40731104
8683336 0.822755072 -0.409515648
8690764 0.820569792 -0.412117312
8698192 0.818387776 -0.414346464
8705620 0.81617952 -0.416667008
8713048 0.813890624 -0.418877856
8720476 0.811440384 -0.421188576
8727904 0.809110464 -0.423682336
8735332 0.806820224 -0.426036256
8742760 0.80453408 -0.42829664
8750188 0.801977984 -0.430533472
8757616 0.799295552 -0.43284752
8765044 0.796794688 -0.435360032
8772472 0.794387776 -0.437715136
8779900 0.79176256 -0.439911648
8787328 0.789065408 -0.44211264
8794756 0.786204992 -0.444478784
8802184 0.783422144 -0.446999104
8809612 0.780789824 -0.4493552
8817040 0.777962304 -0.451613824
8824468 0.775073344 -0.45372896
8831896 0.772002176 -0.456119232
8839324 0.768900672 -0.458514976
8846752 0.76591392 -0.461003424
8854180 0.762857408 -0.463363808
8861608 0.759932544 -0.465613152
8869036 0.756500736 -0.467683968
8876464 0.753144512 -0.470130592
8883892 0.749966592 -0.472566176
8891320 0.74672096 -0.474919936
8898748 0.743369984 -0.477181728
8906176 0.73997856 -0.479246912
8913604 0.736386752 -0.481400512
8921032 0.732678336 -0.483817344
8928460 0.72906912 -0.4862936
8935888 0.725622016 -0.488576992
8943316 0.72208576 -0.490749216
8950744 0.718124224 -0.492766272
8958172 0.7140544 -0.495123904
8965600 0.7102656 -0.497586784
8973028 0.70649824 -0.499839008
8980456 0.702514816 -0.501870336
8987884 0.697816576 -0.503815008
8995312 0.693958272 -0.506304032
9002740 0.692048512 -0.506926432
9010168 0.686621952 -0.511108992
9017596 0.682080384 -0.513396256
9025024 0.677829888 -0.515477312
9032452 0.673410752 -0.517516032
9039880 0.66877024 -0.519464256
9047308 0.664126336 -0.5215944
9054736 0.659513088 -0.52356304
9062164 0.654734208 -0.525441952
9069592 0.649831296 -0.527441312
9077020 0.6448736 -0.529307488
9084448 0.639905216 -0.53111136
9091876 0.634836288 -0.532902368
9099304 0.629647616 -0.534708096
9106732 0.624372608 -0.536364064
9114160 0.619156032 -0.538039552
9121588 0.613734016 -0.539613312
9129016 0.608205376 -0.541150144
9136444 0.602666752 -0.542757568
9143872 0.597000064 -0.544066816
9151300 0.591283008 -0.545509888
9158728 0.58543104 -0.546734208
9166156 0.579462208 -0.54800736
9173584 0.573550656 -0.549229184
9181012 0.567472576 -0.550257984
9188440 0.561212032 -0.551172288
9195868 0.554952128 -0.552244352
9203296 0.548701952 -0.553160192
9210724 0.542306752 -0.553887168
9218152 0.535709504 -0.554659264
9225580 0.529196512 -0.555199104
9233008 0.522459104 -0.555781632
9240436 0.515694624 -0.556225152
9247864 0.508773856 -0.556504448
9255292 0.501802496 -0.556788544
9262720 0.494844192 -0.556921856
9270148 0.487825408 -0.55680032
9277576 0.480506208 -0.556734272
9285004 0.473162176 -0.556432704
9292432 0.465880928 -0.556058496
9299860 0.458420768 -0.555625984
9307288 0.450935328 -0.554898816
9314716 0.44335104 -0.554057472
9322144 0.43559216 -0.553143232
9329572 0.427994112 -0.551978752
9337000 0.420113888 -0.55071872
9344428 0.412236352 -0.549363008
9351856 0.404451616 -0.54770976
9359284 0.396348416 -0.545894464
9366712 0.388301056 -0.54388512
9374140 0.380297184 -0.541862016
9381568 0.3720456 -0.539514816
9388996 0.363935008 -0.53699552
9396424 0.355800672 -0.534283392
9403852 0.347512704 -0.531278848
9411280 0.339292992 -0.52818144
9418708 0.33094512 -0.52491456
9426136 0.32254192 -0.521372672
9433564 0.314406112 -0.517662336
9440992 0.305979296 -0.51354272
9448420 0.297624512 -0.50932688
9455848 0.28932896 -0.505121056
9463276 0.281029504 -0.500316672
9470704 0.272777376 -0.495335232
9478132 0.264560944 -0.490318016
9485560 0.256291632 -0.484843456
9492988 0.248202784 -0.479336064
9500416 0.240147072 -0.473553984
9507844 0.2321052 -0.467321152
9515272 0.224197552 -0.461097312
9522700 0.216291504 -0.454437376
9530128 0.208552208 -0.447544
9537556 0.200917696 -0.440666752
9544984 0.19341552 -0.433097632
9552412 0.18599848 -0.425506784
9559840 0.17856472 -0.417801344
9567268 0.171548976 -0.409592352
9574696 0.16460152 -0.401323776
9582124 0.15773936 -0.392746432
9589552 0.151214 -0.383834784
9596980 0.144694048 -0.374830976
9604408 0.138453808 -0.36551264
9611836 0.132448944 -0.355949184
9619264 0.126642704 -0.34633504
9626692 0.121164504 -0.336271872
9634120 0.115915968 -0.326103872
9641548 0.11068284 -0.315768992
9648976 0.106042904 -0.305142656
9656404 0.10150576 -0.294521728
9663832 0.097224272 -0.283628512
9671260 0.093436696 -0.272444448
9678688 0.08985524 -0.261299728
9686116 0.086336744 -0.24988624
9693544 0.083471456 -0.238398528
9700972 0.080737912 -0.226838912
9708400 0.078513792 -0.215021056
9715828 0.076553304 -0.203357408
9723256 0.074654112 -0.191398304
9730684 0.07362384 -0.1796056
9738112 0.07261528 -0.167658416
9745540 0.071905936 -0.155626832
9752968 0.07256576 -0.140194672
9760396 0.072959312 -0.128270912
9767824 0.073454544 -0.116346472
9775252 0.074233968 -0.104325288
9782680 0.075688848 -0.092593168
9790108 0.077213648 -0.080726016
9797536 0.078875592 -0.068836512
9804964 0.081491544 -0.057339476
9812392 0.084015224 -0.045737672
9819820 0.086972488 -0.034277712
9827248 0.090280744 -0.023091728
9834676 0.0937596 -0.011825622
9842104 0.097732816 -0.001008642
9849532 0.1018896 0.009849847
9856960 0.106241696 0.020678128
9864388 0.111039176 0.030926592
9871816 0.116073808 0.041313148
9879244 0.121304528 0.051553196
9886672 0.126911728 0.061134452
9894100 0.132671896 0.070897352
9901528 0.138686352 0.080406552
9908956 0.144765408 0.08951852
9916384 0.153641216 0.0981284
9923812 0.157894976 0.107076024
9931240 0.16617376 0.11614832
9938668 0.171692144 0.123980792
9946096 0.178801712 0.131603568
9953524 0.186169024 0.139436448
9960952 0.193615952 0.14704448
9968380 0.2010388 0.153936192
9975808 0.2088192 0.160895984
9983236 0.216673408 0.167705008
9990664 0.224326784 0.173894832
9998092 0.23244088 0.180007568
10005520 0.240426096 0.185942368
10012948 0.248420256 0.191408112
10020376 0.256716512 0.19689264
10027804 0.264722288 0.201890688
10035232 0.27302672 0.206743168
10042660 0.281349376 0.211436688
10050088 0.289364448 0.215609488
10057516 0.297803008 0.219680768
10064944 0.306228896 0.223690384
10072372 0.314180736 0.227265568
10079800 0.322597472 0.230565408
10087228 0.330907904 0.233827376
10094656 0.33895888 0.236723952
10102084 0.34724352 0.23952568
10109512 0.355217888 0.242038944
10116940 0.36334224 0.244348176
10124368 0.371545984 0.246441536
10131796 0.379323008 0.248373888
10139224 0.387285984 0.250093872
10146652 0.395319488 0.251641632
10154080 0.402872288 0.25314448
10161508 0.410644224 0.25429552
10168936 0.418449632 0.255264736
10176364 0.425793824 0.25619432
10183792 0.433323904 0.256914736
10191220 0.440667776 0.257537776
10198648 0.447918976 0.257890368
10206076 0.455283968 0.258131776
10213504 0.462347872 0.25842744
10220932 0.469314336 0.258398112
10228360 0.476316544 0.258145696
10235788 0.483144864 0.257982992
10243216 0.48996944 0.257590832
10250644 0.496649856 0.257163728
10258072 0.50304992 0.2566208
10265500 0.509566976 0.255864496
10272928 0.516069952 0.255091968
10280356 0.522356928 0.254315728
10287784 0.528549024 0.253362112
10295212 0.534543264 0.252409344
10302640 0.540519552 0.251241536
10310068 0.546469632 0.249920512
10317496 0.552286016 0.248673968
10324924 0.558109952 0.247272272
10332352 0.563823552 0.245900912
10339780 0.56919776 0.244635552
10347208 0.574661056 0.242915376
10354636 0.580075712 0.241248016
10362064 0.585420352 0.239526016
10369492 0.590737792 0.23778248
10376920 0.595930688 0.23619984
10384348 0.60079552 0.234310048
10391776 0.605769408 0.232288848
10399204 0.6107472 0.230296256
10406632 0.615667456 0.228469888
10414060 0.620306496 0.226604928
10421488 0.624767424 0.224523424
10428916 0.62940672 0.222239952
10436344 0.634128 0.220192944
10443772 0.638498368 0.218301328
10451200 0.642644032 0.216072224
10458628 0.646830656 0.21375872
10466056 0.651107008 0.211440896
10473484 0.6554768 0.209232624
10480912 0.659478784 0.207119936
10488340 0.663240768 0.20480464
10495768 0.667194624 0.202365952
10503196 0.671444032 0.199954032
10510624 0.675142912 0.197601456
10518052 0.678848576 0.195170544
10525480 0.682490752 0.192777152
10532908 0.686046208 0.190421856
10540336 0.6895376 0.187903168
10547764 0.693079552 0.185447632
10555192 0.696425216 0.1829952
10562620 0.699742656 0.180562208
10570048 0.702955648 0.17799016
10577476 0.70620672 0.175500784
10584904 0.709394112 0.172934032
10592332 0.7124128 0.170488144
10599760 0.715395456 0.167965776
10607188 0.718390528 0.165269616
10614616 0.721295104 0.162825648
10622044 0.724136384 0.160289296
10629472 0.726915072 0.157683504
10636900 0.729720576 0.155151152
10644328 0.732414784 0.152580336
10651756 0.735034368 0.150008624
10659184 0.737660608 0.147437184
10666612 0.740255744 0.144771904
10674040 0.742717056 0.142280368
10681468 0.745156096 0.139712416
10688896 0.747575552 0.137065616
10696324 0.749942208 0.13454016
10703752 0.752225728 0.132000032
10711180 0.754554624 0.129370824
10718608 0.756817216 0.12685132
10726036 0.758960576 0.124309976
10733464 0.761062144 0.121636352
10740892 0.763201152 0.11910352
10748320 0.7652976 0.116545216
10755748 0.767270592 0.114060632
10763176 0.769248128 0.111398264
10770604 0.771251456 0.108810072
10778032 0.773154432 0.106319496
10785460 0.774956352 0.103802856
10792888 0.7767888 0.101194536
10800316 0.778526464 0.0987048
10807744 0.780373184 0.096103312
10815172 0.78211136 0.093524136
10822600 0.78374592 0.091111696
10830028 0.78534144 0.088462528
10837456 0.787035136 0.085918672
10844884 0.7886192 0.083501648
10852312 0.790165056 0.080978592
10859740 0.791623424 0.078454248
10867168 0.79307072 0.075925984
10874596 0.794671168 0.073419376
10882024 0.795981376 0.07104568
10889452 0.797324288 0.068436616
10896880 0.79874816 0.06589696
10904308 0.800110656 0.063536324
10911736 0.801395776 0.061179076
10919164 0.802710144 0.058476564
10926592 0.804009856 0.056113324
10934020 0.805351744 0.053713632
10941448 0.806456 0.051309452
10948876 0.807690752 0.04877338
10956304 0.80893472 0.046260068
10963732 0.810073536 0.044088424
10971160 0.811101184 0.041544772
10978588 0.812277696 0.03900932
10986016 0.813610944 0.037071008
10993444 0.8143584 0.034420324
11000872 0.815645248 0.031736732
11008300 0.81715648 0.031105746
11015728 0.817471424 0.027127644
11023156 0.818585664 0.024726406
11030584 0.819200832 0.022487994
11038012 0.820042112 0.019892046
11045440 0.821010304 0.017612004
11052868 0.822053632 0.015347159
11060296 0.82277568 0.013014297
11067724 0.823464704 0.010694806
11075152 0.824265984 0.008244566
11082580 0.825133312 0.005774628
11090008 0.82603232 0.00362536
11097436 0.826632 0.001432346
11104864 0.827199552 -0.000901716
11112292 0.82792512 -0.003428565
11119720 0.828796416 -0.005663198
11127148 0.829345664 -0.00772791
11134576 0.829776896 -0.010104079
11142004 0.830422912 -0.012627457
11149432 0.831232256 -0.014847153
11156860 0.831822336 -0.016957724
11164288 0.832229952 -0.019135632
11171716 0.832564992 -0.021421324
11179144 0.833095808 -0.023874064
11186572 0.83385376 -0.026180912
11194000 0.834373888 -0.028274204
11201428 0.83477344 -0.030297924
11208856 0.835000448 -0.03263222
11216284 0.835571712 -0.035055252
11223712 0.83620576 -0.037306796
11231140 0.836768192 -0.03923218
11238568 0.836938368 -0.04140384
11245996 0.837163968 -0.043744548
11253424 0.837645184 -0.045522004
11260852 0.838036608 -0.04774934
11268280 0.838506048 -0.049879424
11275708 0.83877856 -0.051937128
11283136 0.838985728 -0.054285716
11290564 0.839286016 -0.056564584
11297992 0.839661056 -0.058665392
11305420 0.839850496 -0.060773372
11312848 0.840015232 -0.062999136
11320276 0.840420416 -0.065152212
11327704 0.840600448 -0.067261424
11335132 0.84077728 -0.069389544
11342560 0.840954752 -0.071513704
11349988 0.84109248 -0.073694352
11357416 0.841204288 -0.075887192
11364844 0.841419072 -0.077965448
11372272 0.841573568 -0.080128008
11379700 0.841662848 -0.082220584
11387128 0.841732864 -0.084292088
11394556 0.8418416 -0.086454408
11401984 0.841891392 -0.0885248
11409412 0.841909952 -0.090655128
11416840 0.84199136 -0.092690464
11424268 0.842008384 -0.09478428
11431696 0.842033152 -0.09692232
11439124 0.841993216 -0.098949856
11446552 0.842017088 -0.101045592
11453980 0.841987904 -0.103241824
11461408 0.841984192 -0.105202992
11468836 0.841831744 -0.107203208
11476264 0.84175936 -0.109326992
11483692 0.841746496 -0.11142788
11491120 0.841791104 -0.113454176
11498548 0.841593152 -0.115484
11505976 0.84156512 -0.117555944
11513404 0.841510784 -0.119628512
11520832 0.841250944 -0.12157952
11528260 0.841156928 -0.12363276
11535688 0.841035584 -0.12575036
11543116 0.84084928 -0.127736704
11550544 0.84072672 -0.129707664
